  can1  123   [2]  12 23
  can1  123   [2]  12 23
  can1  123   [2]  12 23
  can1  123   [2]  12 23
  can1  123   [1]  12
  can1  14E59253  [03]  29 6A E6
  can1  147EA618  [05]  FA 37 BF 36 2F
  can1       679  [03]  A6 88 F9
  can1  17192177  [03]  6B 18 56
  can1       4DF  [04]  19 C7 71 77
  can1       112  [05]  BC 38 1D 9A F2
  can1       123   [4]  11 22 33 44
  can1       2F9  [01]  A4
  can1       123   [4]  11 22 33 44
  can1  146AFECC  [02]  5D 26
  can1       123   [4]  11 22 33 44
  can1  1C326935  [04]  5E 7A 35 8C
  can1  12E34387  [02]  34 BD
  can1       65D  [04]  F3 45 4A 15
  can1       123   [4]  11 22 33 44
  can1       6BF  [01]  44
  can1       123   [4]  11 22 33 44
  can1       5CF  [03]  61 65 84
  can1       123   [4]  11 22 33 44
  can1       1EB  [05]  5D 4E 24 5C 3E
  can1       123   [4]  11 22 33 44
  can1       556  [01]  27
  can1       123   [4]  11 22 33 44
  can1       123   [1]  12
  can1       123   [4]  11 22 33 44
  can1       123   [1]  12
  can1       123   [1]  12
  can1       1BF  [04]  A2 59 B3 CE
  can1       123   [4]  11 22 33 44
  can1       316  [03]  AF 62 2D
  can1       123   [4]  11 22 33 44
  can1       3E5  [05]  EB 7E 73 38 A9
  can1       123   [4]  11 22 33 44
  can1  1F8BE23A  [01]  B8
  can1       123   [4]  11 22 33 44
  can1       4E9  [02]  16 98
  can1       123   [4]  11 22 33 44
  can1  1E393426  [04]  D7 22 93 5A
  can1       123   [4]  11 22 33 44
  can1  1D7EAEAA  [05]  FC 94 3A D1 63
  can1       123   [4]  11 22 33 44
  can1       28E  [05]  DD 4C 4E 5A 73
  can1       123   [4]  11 22 33 44
  can1  1F58EEF7  [05]  21 34 69 96 42
  can1       123   [4]  11 22 33 44
  can1       754  [03]  5A 5E 62
  can1       123   [4]  11 22 33 44
  can1  1616F1C8  [01]  C7
  can1       123   [4]  11 22 33 44
  can1  13C119F8  [02]  AA B7
  can1       123   [4]  11 22 33 44
  can1       3C5  [03]  4D AD 16
  can1       123   [4]  11 22 33 44
  can1  199F4CE6  [03]  41 34 DD
  can1       123   [4]  11 22 33 44
  can1  1962EBB4  [03]  C5 1D B4
  can1  12185486  [04]  9A 99 14 5E
  can1  16C92A68  [04]  FF 6A B2 5A
  can1  1BE7396F  [03]  FC FB 48
  can1       29F  [05]  14 EA 47 6D 84
  can1       123   [4]  11 22 33 44
  can1  19EEBD23  [03]  B6 E2 88
  can1       123   [4]  11 22 33 44
